(1776641309.723398) COM6 1CEFFF24#6699DBEDD9070000 R
(1776641309.724412) COM6 1CEFFFE1#6699022091140000 R
(1776641309.725397) COM6 1CEFFF24#669920017C150000 R
(1776641309.726555) COM6 1CEFFF24#6699020200000000 R
(1776641309.726555) COM6 1CEFFF24#6699000201000000 R
(1776641309.727555) COM6 305#0000000000000000 R
(1776641309.727555) COM6 307#1234567856494300 R
(1776641309.727555) COM6 19F21424#009114000057718B R
(1776641309.728674) COM6 19F21224#200B8B0000FFFFFF R
(1776641309.728674) COM6 19F21224#21FFFFFFFFFFFFFF R
(1776641309.729674) COM6 19F21424#0100000000FFFF8B R
(1776641309.729674) COM6 19F21224#200B8B0103FFFFFF R
(1776641309.730675) COM6 19F21224#21FFFFFFFFFFFFFF R
(1776641309.730675) COM6 19F30624#8BFF00FDFFFFFFFF R
(1776641309.731674) COM6 1CEFFF24#6699DBEDD3070000 R
(1776641309.731674) COM6 1CEFFFE1#66990120AE150000 R
(1776641309.732674) COM6 1CEFFFE1#66990E200D000000 R
(1776641309.732674) COM6 1CEFFF24#669920017D150000 R
(1776641309.733674) COM6 305#0000000000000000 R
(1776641309.733674) COM6 307#1234567856494300 R
(1776641309.734675) COM6 1CEFFF24#6699DBEDDA070000 R
(1776641309.734675) COM6 19F21424#00911400005771A9 R
(1776641309.735774) COM6 19F21224#400BA90000FFFFFF R
(1776641309.735774) COM6 19F21224#41FFFFFFFFFFFFFF R
(1776641309.736774) COM6 19F21424#0100000000FFFFA9 R
(1776641309.736774) COM6 19F21224#400BA90103FFFFFF R
(1776641309.737774) COM6 19F21224#41FFFFFFFFFFFFFF R
(1776641309.738896) COM6 19F30624#A9FF00FDFFFFFFFF R
(1776641309.739897) COM6 0DF20D24#0000FCFFFFFFFFFF R
(1776641309.739897) COM6 1CEFFF24#669920017E150000 R
(1776641309.740896) COM6 305#0000000000000000 R
(1776641309.740896) COM6 307#1234567856494300 R
(1776641309.741897) COM6 1CEFFF24#6699DBEDD8070000 R
(1776641309.741897) COM6 1CEFFFE1#6699022091140000 R
(1776641309.742896) COM6 1CEFFFE1#66990320A4060000 R
(1776641309.742896) COM6 1CEFFF24#669920017F150000 R
(1776641309.743919) COM6 1CEF24E1#66990100D0EDFCFF R
(1776641309.744897) COM6 1CEF24E1#66990100DCEDFEFF R
(1776641309.744897) COM6 1CEFFF24#6699D3ED00000000 R
(1776641309.744897) COM6 1CEF24E1#66990100DAEDFFFF R
(1776641309.745997) COM6 1CEFFF24#6699D2ED00000000 R
(1776641309.745997) COM6 1CEF24E1#669901002720FFFF R
(1776641309.746998) COM6 1CEFFF24#6699D1ED48000000 R
(1776641309.746998) COM6 1CEFFF24#6699D0ED78000000 R
(1776641309.747998) COM6 1CEFFF24#6699DDED8E000000 R
(1776641309.747998) COM6 1CEFFF24#6699DCED8E000000 R
(1776641309.749079) COM6 1CEFFF24#66992720FFFFFFFF R
(1776641309.749079) COM6 1CEFFF24#6699DAED00000000 R
(1776641309.750079) COM6 305#0000000000000000 R
(1776641309.750079) COM6 307#1234567856494300 R
(1776641309.751081) COM6 19F21424#00911400005771C7 R
(1776641309.751081) COM6 19F21224#600BC70000FFFFFF R
(1776641309.752080) COM6 19F21224#61FFFFFFFFFFFFFF R
(1776641309.752080) COM6 19F21424#0100000000FFFFC7 R
(1776641309.753081) COM6 19F21224#600BC70103FFFFFF R
(1776641309.753081) COM6 19F21224#61FFFFFFFFFFFFFF R
(1776641309.754080) COM6 19F30624#C7FF00FDFFFFFFFF R
(1776641309.754080) COM6 1CEFFF24#6699042003000000 R
(1776641309.755080) COM6 1CEFFF24#6699DBEDD4070000 R
(1776641309.756166) COM6 1CEFFF24#6699200180150000 R
(1776641309.947142) COM6 305#0000000000000000 R
(1776641309.949142) COM6 307#1234567856494300 R
(1776641310.559373) COM6 1CEFFF24#6699010200000000 R
(1776641310.561374) COM6 1CEFFF24#6699DBEDCE070000 R
(1776641310.609564) COM6 19F21424#00911400005771E5 R
(1776641310.610562) COM6 19F21224#800BE50000FFFFFF R
(1776641310.611562) COM6 19F21224#81FFFFFFFFFFFFFF R
(1776641310.612562) COM6 19F21424#0100000000FFFFE5 R
(1776641310.612562) COM6 19F21224#800BE50103FFFFFF R
(1776641310.613562) COM6 19F21224#81FFFFFFFFFFFFFF R
(1776641310.614563) COM6 19F30624#E5FF00FDFFFFFFFF R
(1776641310.659290) COM6 1CEFFF24#6699200181150000 R
(1776641310.710011) COM6 1CEFFF24#6699020200000000 R
(1776641310.909175) COM6 1CEFFF24#6699000201000000 R
(1776641310.944621) COM6 305#0000000000000000 R
(1776641310.944621) COM6 307#1234567856494300 R
(1776641311.560716) COM6 1CEFFF24#6699DBEDD8070000 R
(1776641311.572713) COM6 1CEFFFE1#6699022091140000 R
(1776641311.577236) COM6 1CEFFFE1#66990120AE150000 R
(1776641311.578711) COM6 1CEFFFE1#66990E200D000000 R
(1776641311.659575) COM6 1CEFFF24#6699200182150000 R
(1776641311.947585) COM6 305#0000000000000000 R
(1776641311.948874) COM6 307#1234567856494300 R
(1776641312.109686) COM6 19F21424#0091140000577107 R
(1776641312.110667) COM6 19F21224#A00B070000FFFFFF R
(1776641312.111667) COM6 19F21224#A1FFFFFFFFFFFFFF R
(1776641312.112670) COM6 19F21424#0100000000FFFF07 R
(1776641312.112670) COM6 19F21224#A00B070103FFFFFF R
(1776641312.113669) COM6 19F21224#A1FFFFFFFFFFFFFF R
(1776641312.113669) COM6 19F30624#07FF00FDFFFFFFFF R
(1776641312.560853) COM6 1CEFFF24#6699DBEDDA070000 R
(1776641312.659386) COM6 1CEFFF24#6699200183150000 R
(1776641312.947947) COM6 305#0000000000000000 R
(1776641312.949302) COM6 307#1234567856494300 R
(1776641313.109791) COM6 1CEFFF24#6699D5ED90140000 R
(1776641313.111243) COM6 1CEFFF24#66998DED90140000 R
(1776641313.560407) COM6 1CEFFF24#6699D5ED91140000 R
(1776641313.561941) COM6 1CEFFF24#66998DED91140000 R
(1776641313.562938) COM6 1CEFFF24#6699DBEDD4070000 R
(1776641313.609885) COM6 19F21424#0090140000577125 R
(1776641313.611409) COM6 19F21224#C00B250000FFFFFF R
(1776641313.612414) COM6 19F21224#C1FFFFFFFFFFFFFF R
(1776641313.612414) COM6 19F21424#0100000000FFFF25 R
(1776641313.613415) COM6 19F21224#C00B250103FFFFFF R
(1776641313.613415) COM6 19F21224#C1FFFFFFFFFFFFFF R
(1776641313.614414) COM6 19F30624#25FF00FDFFFFFFFF R
(1776641313.614414) COM6 0DF20D24#0000FCFFFFFFFFFF R
(1776641313.659728) COM6 1CEFFF24#6699200184150000 R
(1776641313.827917) COM6 1CEF24E1#66990100D0EDFCFF R
(1776641313.829045) COM6 1CEF24E1#66990100DCEDFEFF R
(1776641313.829700) COM6 1CEFFF24#6699D3ED00000000 R
(1776641313.830706) COM6 1CEF24E1#66990100DAEDFFFF R
(1776641313.830706) COM6 1CEFFF24#6699D2ED00000000 R
(1776641313.831715) COM6 1CEF24E1#669901002720FFFF R
(1776641313.832705) COM6 1CEFFF24#6699D1ED48000000 R
(1776641313.832705) COM6 1CEFFF24#6699D0ED78000000 R
(1776641313.833704) COM6 1CEFFF24#6699DDED8E000000 R
(1776641313.833704) COM6 1CEFFF24#6699DCED8E000000 R
(1776641313.834704) COM6 1CEFFF24#6699DAED00000000 R
(1776641313.834704) COM6 1CEFFF24#66992720FFFFFFFF R
(1776641313.947460) COM6 305#0000000000000000 R
(1776641313.948417) COM6 307#1234567856494300 R
(1776641314.522147) COM6 1CEFFFE1#6699FF0FE8030000 R
(1776641314.524151) COM6 1CEFFFE1#66991C2000000000 R
(1776641314.559467) COM6 1CEFFF24#6699D5ED91140000 R
(1776641314.561423) COM6 1CEFFF24#66998DED91140000 R
(1776641314.562405) COM6 1CEFFF24#6699DBEDD4070000 R
(1776641314.573802) COM6 1CEFFFE1#6699022091140000 R
(1776641314.659927) COM6 1CEFFF24#6699200185150000 R
(1776641314.947657) COM6 305#0000000000000000 R
(1776641314.948822) COM6 307#1234567856494300 R
(1776641315.109668) COM6 19F21424#0091140000577143 R
(1776641315.111135) COM6 19F21224#E00B430000FFFFFF R
(1776641315.112101) COM6 19F21224#E1FFFFFFFFFFFFFF R
(1776641315.112101) COM6 19F21424#0100000000FFFF43 R
(1776641315.113111) COM6 19F21224#E00B430103FFFFFF R
(1776641315.114100) COM6 19F21224#E1FFFFFFFFFFFFFF R
(1776641315.114100) COM6 19F30624#43FF00FDFFFFFFFF R
(1776641315.559884) COM6 1CEFFF24#6699010200000000 R
(1776641315.561891) COM6 1CEFFF24#6699DBEDCD070000 R
(1776641315.658880) COM6 1CEFFF24#6699200186150000 R
(1776641315.659880) COM6 1CEFFF24#6699D5ED90140000 R
(1776641315.660879) COM6 1CEFFF24#66998DED90140000 R
(1776641315.710312) COM6 1CEFFF24#6699020200000000 R
(1776641315.909874) COM6 1CEFFF24#6699000201000000 R
(1776641315.944700) COM6 305#0000000000000000 R
(1776641315.946250) COM6 307#1234567856494300 R
(1776641316.523167) COM6 1CEFFFE1#6699FF0FE8030000 R
(1776641316.524673) COM6 1CEFFFE1#66991C2000000000 R
(1776641316.560576) COM6 1CEFFF24#6699D5ED90140000 R
(1776641316.562103) COM6 1CEFFF24#66998DED90140000 R
(1776641316.562103) COM6 1CEFFF24#6699DBEDCC070000 R
(1776641316.576526) COM6 1CEFFFE1#66990120AE150000 R
(1776641316.577526) COM6 1CEFFFE1#66990E200D000000 R
(1776641316.609736) COM6 19F21424#0090140000577161 R
(1776641316.611461) COM6 19F21224#000B610000FFFFFF R
(1776641316.611461) COM6 19F21224#01FFFFFFFFFFFFFF R
(1776641316.612460) COM6 19F21424#0100000000FFFF61 R
(1776641316.612460) COM6 19F21224#000B610103FFFFFF R
(1776641316.613460) COM6 19F21224#01FFFFFFFFFFFFFF R
(1776641316.613460) COM6 19F30624#61FF00FDFFFFFFFF R
(1776641316.659966) COM6 1CEFFF24#6699200187150000 R
(1776641316.947978) COM6 305#0000000000000000 R
(1776641316.949117) COM6 307#1234567856494300 R
(1776641317.523595) COM6 1CEFFFE1#6699FF0FE8030000 R
(1776641317.524585) COM6 1CEFFFE1#66991C2000000000 R
(1776641317.560566) COM6 1CEFFF24#6699D5ED91140000 R
(1776641317.561573) COM6 1CEFFF24#66998DED91140000 R
(1776641317.563571) COM6 1CEFFF24#6699DBEDD8070000 R
(1776641317.575300) COM6 1CEFFFE1#6699022091140000 R
(1776641317.577316) COM6 1CEFFFE1#66990320A4060000 R
(1776641317.659231) COM6 1CEFFF24#6699200188150000 R
(1776641317.947520) COM6 305#0000000000000000 R
(1776641317.948255) COM6 307#1234567856494300 R
(1776641318.111015) COM6 19F21424#009114000057717F R
(1776641318.111649) COM6 19F21224#200B7F0000FFFFFF R
(1776641318.112656) COM6 19F21224#21FFFFFFFFFFFFFF R
(1776641318.113654) COM6 19F21424#0100000000FFFF7F R
(1776641318.114656) COM6 19F21224#200B7F0103FFFFFF R
(1776641318.115653) COM6 19F21224#21FFFFFFFFFFFFFF R
(1776641318.115653) COM6 19F30624#7FFF00FDFFFFFFFF R
(1776641318.560716) COM6 1CEFFF24#6699DBEDC6070000 R
(1776641318.660035) COM6 1CEFFF24#6699200189150000 R
(1776641318.827566) COM6 1CEF24E1#66990100D0EDFCFF R
(1776641318.828571) COM6 1CEF24E1#66990100DCEDFEFF R
(1776641318.829017) COM6 1CEFFF24#6699D3ED00000000 R
(1776641318.830025) COM6 1CEF24E1#66990100DAEDFFFF R
(1776641318.831022) COM6 1CEFFF24#6699D2ED00000000 R
(1776641318.831425) COM6 1CEF24E1#669901002720FFFF R
(1776641318.832505) COM6 1CEFFF24#6699D1ED48000000 R
(1776641318.833510) COM6 1CEFFF24#6699D0ED78000000 R
(1776641318.834510) COM6 1CEFFF24#6699DDED8E000000 R
(1776641318.834510) COM6 1CEFFF24#6699DAED00000000 R
(1776641318.835510) COM6 1CEFFF24#6699DCED8E000000 R
(1776641318.836574) COM6 1CEFFF24#66992720FFFFFFFF R
(1776641318.947686) COM6 305#0000000000000000 R
(1776641318.948743) COM6 307#1234567856494300 R
(1776641319.459292) COM6 1CEFFF24#6699D5ED90140000 R
(1776641319.461497) COM6 1CEFFF24#66998DED90140000 R
(1776641319.529832) COM6 1CEFFFE1#6699FF0FE8030000 R
(1776641319.530893) COM6 1CEFFFE1#66991C2000000000 R
(1776641319.561159) COM6 1CEFFF24#6699DBEDD7070000 R
(1776641319.610156) COM6 19F21424#009014000057719D R
(1776641319.611266) COM6 19F21224#400B9D0000FFFFFF R
(1776641319.612273) COM6 19F21224#41FFFFFFFFFFFFFF R
(1776641319.613272) COM6 19F21424#0100000000FFFF9D R
(1776641319.614271) COM6 19F21224#400B9D0103FFFFFF R
(1776641319.614271) COM6 19F21224#41FFFFFFFFFFFFFF R
(1776641319.615271) COM6 19F30624#9DFF00FDFFFFFFFF R
(1776641319.616350) COM6 0DF20D24#0000FCFFFFFFFFFF R
(1776641319.660219) COM6 1CEFFF24#669920018A150000 R
(1776641319.661115) COM6 1CEFFF24#6699D5ED91140000 R
(1776641319.662121) COM6 1CEFFF24#66998DED91140000 R
(1776641319.945091) COM6 305#0000000000000000 R
(1776641319.946232) COM6 307#1234567856494300 R
(1776641320.532193) COM6 1CEFFFE1#6699FF0FE8030000 R
(1776641320.533186) COM6 1CEFFFE1#66991C2000000000 R
(1776641320.559098) COM6 1CEFFF24#6699010200000000 R
(1776641320.561103) COM6 1CEFFF24#6699DBEDD7070000 R
(1776641320.574246) COM6 1CEFFFE1#6699022091140000 R
(1776641320.659343) COM6 1CEFFF24#669920018B150000 R
(1776641320.710194) COM6 1CEFFF24#6699020200000000 R
(1776641320.909694) COM6 1CEFFF24#6699000201000000 R
(1776641320.948759) COM6 305#0000000000000000 R
(1776641320.949768) COM6 307#1234567856494300 R
(1776641321.109572) COM6 19F21424#00911400005771BB R
(1776641321.110573) COM6 19F21224#600BBB0000FFFFFF R
(1776641321.111572) COM6 19F21224#61FFFFFFFFFFFFFF R
(1776641321.111572) COM6 19F21424#0100000000FFFFBB R
(1776641321.112572) COM6 19F21224#600BBB0103FFFFFF R
(1776641321.113573) COM6 19F21224#61FFFFFFFFFFFFFF R
(1776641321.113573) COM6 19F30624#BBFF00FDFFFFFFFF R
(1776641321.561340) COM6 1CEFFF24#6699DBEDD3070000 R
(1776641321.575571) COM6 1CEFFFE1#66990120AE150000 R
(1776641321.576748) COM6 1CEFFFE1#66990E200D000000 R
(1776641321.659780) COM6 1CEFFF24#669920018C150000 R
(1776641321.947959) COM6 305#0000000000000000 R
(1776641321.948967) COM6 307#1234567856494300 R
(1776641322.531047) COM6 1CEFFFE1#6699FF0FE8030000 R
(1776641322.534943) COM6 1CEFFFE1#66991C2000000000 R
(1776641322.560295) COM6 1CEFFF24#6699DBEDD3070000 R
(1776641322.609444) COM6 19F21424#00911400005771D9 R
(1776641322.610454) COM6 19F21224#800BD90000FFFFFF R
(1776641322.611449) COM6 19F21224#81FFFFFFFFFFFFFF R
(1776641322.612454) COM6 19F21424#0100000000FFFFD9 R
(1776641322.613453) COM6 19F21224#800BD90103FFFFFF R
(1776641322.613453) COM6 19F21224#81FFFFFFFFFFFFFF R
(1776641322.614454) COM6 19F30624#D9FF00FDFFFFFFFF R
(1776641322.659478) COM6 1CEFFF24#669920018D150000 R
(1776641322.946836) COM6 305#0000000000000000 R
(1776641322.947825) COM6 307#1234567856494300 R
(1776641323.059536) COM6 1CEFFF24#6699D5ED90140000 R
(1776641323.060542) COM6 1CEFFF24#66998DED90140000 R
(1776641323.560345) COM6 1CEFFF24#6699D5ED91140000 R
(1776641323.561355) COM6 1CEFFF24#66998DED91140000 R
(1776641323.562350) COM6 1CEFFF24#6699DBEDD0070000 R
(1776641323.575113) COM6 1CEFFFE1#6699022091140000 R
(1776641323.659841) COM6 1CEFFF24#669920018E150000 R
(1776641323.827404) COM6 1CEF24E1#66990100D0EDFCFF R
(1776641323.827404) COM6 1CEF24E1#66990100DCEDFEFF R
(1776641323.828447) COM6 1CEFFF24#6699D3ED00000000 R
(1776641323.829448) COM6 1CEF24E1#66990100DAEDFFFF R
(1776641323.829448) COM6 1CEFFF24#6699D2ED00000000 R
(1776641323.830448) COM6 1CEF24E1#669901002720FFFF R
(1776641323.831447) COM6 1CEFFF24#6699D1ED48000000 R
(1776641323.831447) COM6 1CEFFF24#6699D0ED78000000 R
(1776641323.832447) COM6 1CEFFF24#6699DDED8E000000 R
(1776641323.832447) COM6 1CEFFF24#6699DCED8E000000 R
(1776641323.833447) COM6 1CEFFF24#6699DAED00000000 R
(1776641323.833447) COM6 1CEFFF24#66992720FFFFFFFF R
(1776641323.948566) COM6 305#0000000000000000 R
(1776641323.948566) COM6 307#1234567856494300 R
(1776641324.110391) COM6 19F21424#00911400005771F7 R
(1776641324.111403) COM6 19F21224#A00BF70000FFFFFF R
(1776641324.112432) COM6 19F21224#A1FFFFFFFFFFFFFF R
(1776641324.113388) COM6 19F21424#0100000000FFFFF7 R
(1776641324.114428) COM6 19F21224#A00BF70103FFFFFF R
(1776641324.115421) COM6 19F21224#A1FFFFFFFFFFFFFF R
(1776641324.115421) COM6 19F30624#F7FF00FDFFFFFFFF R
(1776641324.560574) COM6 1CEFFF24#6699D5ED91140000 R
(1776641324.561551) COM6 1CEFFF24#66998DED91140000 R
(1776641324.562558) COM6 1CEFFF24#6699DBEDDA070000 R
(1776641324.659591) COM6 1CEFFF24#669920018F150000 R
(1776641324.947809) COM6 305#0000000000000000 R
(1776641324.948908) COM6 307#1234567856494300 R
(1776641325.560513) COM6 1CEFFF24#6699010200000000 R
(1776641325.561512) COM6 1CEFFF24#6699D5ED91140000 R
(1776641325.562544) COM6 1CEFFF24#66998DED91140000 R
(1776641325.562544) COM6 1CEFFF24#6699DBEDCE070000 R
(1776641325.609702) COM6 19F21424#0091140000577119 R
(1776641325.610690) COM6 19F21224#C00B190000FFFFFF R
(1776641325.611689) COM6 19F21224#C1FFFFFFFFFFFFFF R
(1776641325.612688) COM6 19F21424#0100000000FFFF19 R
(1776641325.613688) COM6 19F21224#C00B190103FFFFFF R
(1776641325.613688) COM6 19F21224#C1FFFFFFFFFFFFFF R
(1776641325.614688) COM6 19F30624#19FF00FDFFFFFFFF R
(1776641325.614688) COM6 0DF20D24#0000FCFFFFFFFFFF R
(1776641325.660630) COM6 1CEFFF24#6699200190150000 R
(1776641325.710653) COM6 1CEFFF24#6699020200000000 R
(1776641325.910160) COM6 1CEFFF24#6699000201000000 R
(1776641325.949645) COM6 305#0000000000000000 R
(1776641325.950651) COM6 307#1234567856494300 R
(1776641326.560210) COM6 1CEFFF24#6699D5ED91140000 R
(1776641326.560210) COM6 1CEFFF24#66998DED91140000 R
(1776641326.561253) COM6 1CEFFF24#6699DBEDD5070000 R
(1776641326.575947) COM6 1CEFFFE1#6699022091140000 R
(1776641326.576918) COM6 1CEFFFE1#66990120AE150000 R
(1776641326.577913) COM6 1CEFFFE1#66990E200D000000 R
(1776641326.578993) COM6 1CEFFFE1#66990320A4060000 R
(1776641326.659311) COM6 1CEFFF24#6699200191150000 R
(1776641326.947916) COM6 305#0000000000000000 R
(1776641326.947916) COM6 307#1234567856494300 R
(1776641327.109773) COM6 19F21424#0091140000577137 R
(1776641327.110527) COM6 19F21224#E00B370000FFFFFF R
(1776641327.111551) COM6 19F21224#E1FFFFFFFFFFFFFF R
(1776641327.112561) COM6 19F21424#0100000000FFFF37 R
(1776641327.113532) COM6 19F21224#E00B370103FFFFFF R
(1776641327.114530) COM6 19F21224#E1FFFFFFFFFFFFFF R
(1776641327.115530) COM6 19F30624#37FF00FDFFFFFFFF R
(1776641327.561311) COM6 1CEFFF24#6699DBEDDA070000 R
(1776641327.660358) COM6 1CEFFF24#6699200192150000 R
(1776641327.947731) COM6 305#0000000000000000 R
(1776641327.949029) COM6 307#1234567856494300 R
(1776641328.560349) COM6 1CEFFF24#6699DBEDCD070000 R
(1776641328.609665) COM6 19F21424#0091140000577155 R
(1776641328.610673) COM6 19F21224#000B550000FFFFFF R
(1776641328.611673) COM6 19F21224#01FFFFFFFFFFFFFF R
(1776641328.612674) COM6 19F21424#0100000000FFFF55 R
(1776641328.613673) COM6 19F21224#000B550103FFFFFF R
(1776641328.614674) COM6 19F21224#01FFFFFFFFFFFFFF R
(1776641328.615162) COM6 19F30624#55FF00FDFFFFFFFF R
(1776641328.659220) COM6 1CEFFF24#6699200193150000 R
(1776641328.827557) COM6 1CEF24E1#66990100D0EDFCFF R
(1776641328.827557) COM6 1CEF24E1#66990100DCEDFEFF R
(1776641328.828603) COM6 1CEFFF24#6699D3ED00000000 R
(1776641328.829604) COM6 1CEF24E1#66990100DAEDFFFF R
(1776641328.829604) COM6 1CEFFF24#6699D2ED00000000 R
(1776641328.830603) COM6 1CEF24E1#669901002720FFFF R
(1776641328.831603) COM6 1CEFFF24#6699D1ED48000000 R
(1776641328.831603) COM6 1CEFFF24#6699D0ED78000000 R
(1776641328.832620) COM6 1CEFFF24#6699DDED8E000000 R
(1776641328.832620) COM6 1CEFFF24#6699DCED8E000000 R
(1776641328.833620) COM6 1CEFFF24#66992720FFFFFFFF R
(1776641328.833620) COM6 1CEFFF24#6699DAED00000000 R
(1776641328.859414) COM6 1CEFFF24#6699D5ED90140000 R
(1776641328.860407) COM6 1CEFFF24#66998DED90140000 R
(1776641328.947554) COM6 305#0000000000000000 R
(1776641328.947554) COM6 307#1234567856494300 R
(1776641329.560669) COM6 1CEFFF24#6699D5ED90140000 R
(1776641329.561679) COM6 1CEFFF24#66998DED90140000 R
(1776641329.562675) COM6 1CEFFF24#6699DBEDCE070000 R
(1776641329.577445) COM6 1CEFFFE1#6699022091140000 R
(1776641329.660053) COM6 1CEFFF24#6699200194150000 R
(1776641329.948030) COM6 305#0000000000000000 R
(1776641329.949173) COM6 307#1234567856494300 R
(1776641330.110109) COM6 19F21424#0091140000577173 R
(1776641330.111110) COM6 19F21224#200B730000FFFFFF R
(1776641330.112111) COM6 19F21224#21FFFFFFFFFFFFFF R
(1776641330.112111) COM6 19F21424#0100000000FFFF73 R
(1776641330.114112) COM6 19F21224#200B730103FFFFFF R
(1776641330.115111) COM6 19F21224#21FFFFFFFFFFFFFF R
(1776641330.115111) COM6 19F30624#73FF00FDFFFFFFFF R
(1776641330.560268) COM6 1CEFFF24#6699010200000000 R
(1776641330.561549) COM6 1CEFFF24#6699D5ED91140000 R
(1776641330.561549) COM6 1CEFFF24#66998DED91140000 R
(1776641330.562579) COM6 1CEFFF24#6699DBEDD3070000 R
(1776641330.660145) COM6 1CEFFF24#6699200195150000 R
(1776641330.710731) COM6 1CEFFF24#6699020200000000 R
(1776641330.910169) COM6 1CEFFF24#6699000201000000 R
(1776641330.948431) COM6 305#0000000000000000 R
(1776641330.949437) COM6 307#1234567856494300 R
(1776641331.560983) COM6 1CEFFF24#6699DBEDD8070000 R
(1776641331.575218) COM6 1CEFFFE1#66990120AE150000 R
(1776641331.577319) COM6 1CEFFFE1#66990E200D000000 R
(1776641331.609519) COM6 19F21424#0091140000577191 R
(1776641331.611174) COM6 19F21224#400B910000FFFFFF R
(1776641331.612180) COM6 19F21224#41FFFFFFFFFFFFFF R
(1776641331.613178) COM6 19F21424#0100000000FFFF91 R
(1776641331.613178) COM6 19F21224#400B910103FFFFFF R
(1776641331.614178) COM6 19F21224#41FFFFFFFFFFFFFF R
(1776641331.614178) COM6 19F30624#91FF00FDFFFFFFFF R
(1776641331.615178) COM6 0DF20D24#0000FCFFFFFFFFFF R
(1776641331.660308) COM6 1CEFFF24#6699200196150000 R
(1776641331.947330) COM6 305#0000000000000000 R
(1776641331.949593) COM6 307#1234567856494300 R
(1776641332.559900) COM6 1CEFFF24#6699D5ED92140000 R
(1776641332.561350) COM6 1CEFFF24#66998DED92140000 R
(1776641332.561350) COM6 1CEFFF24#6699DBEDC9070000 R
(1776641332.577107) COM6 1CEFFFE1#6699022091140000 R
(1776641332.660486) COM6 1CEFFF24#6699200197150000 R
(1776641332.661628) COM6 1CEFFF24#6699D5ED91140000 R
(1776641332.662633) COM6 1CEFFF24#66998DED91140000 R
(1776641332.945446) COM6 305#0000000000000000 R
